T5138 000:004.495   SEGGER J-Link V6.70e Log File
T5138 000:004.588   DLL Compiled: Apr 17 2020 17:55:05
T5138 000:004.597   Logging started @ 2026-09-17 13:44
T5138 000:004.607 JLINK_SetWarnOutHandler(...)
T5138 000:004.617 - 0.014ms
T5138 000:004.627 JLINK_OpenEx(...)
T5138 000:006.409   Firmware: J-Link V9 compiled May  7 2021 16:26:12
T5138 000:006.553   Decompressing FW timestamp took 103 us
T5138 000:015.537   Hardware: V9.40
T5138 000:015.587   S/N: 69409934
T5138 000:015.610   OEM: SEGGER
T5138 000:015.622   Feature(s): RDI, GDB, FlashDL, FlashBP, JFlash
T5138 000:017.020   TELNET listener socket opened on port 19021
T5138 000:017.238   WEBSRV Starting webserver
T5138 000:017.395   WEBSRV Webserver running on local port 19080
T5138 000:017.410 - 12.787ms returns "O.K."
T5138 000:017.433 JLINK_GetEmuCaps()
T5138 000:017.445 - 0.016ms returns 0xB9FF7BBF
T5138 000:017.455 JLINK_TIF_GetAvailable(...)
T5138 000:017.779 - 0.358ms
T5138 000:017.821 JLINK_SetErrorOutHandler(...)
T5138 000:017.829 - 0.012ms
T5138 000:017.846 JLINK_ExecCommand("ProjectFile = "D:\My learning\Serial Port Interrupt\MDK-ARM\JLinkSettings.ini"", ...). 
T5138 000:024.016   Ref file found at: C:\Keil_v5\ARM\Segger\JLinkDevices.ref
T5138 000:024.134   XML referenced by ref file: D:\JLinkDevices.xml
T5138 000:024.679   D:\JLinkDevices.xml evaluated successfully.
T5138 000:030.156 - 12.325ms returns 0x00
T5138 000:033.067 JLINK_ExecCommand("Device = STM32F103RC", ...). 
T5138 000:034.406   Device "STM32F103RC" selected.
T5138 000:034.842 - 1.758ms returns 0x00
T5138 000:034.864 JLINK_ExecCommand("DisableConnectionTimeout", ...). 
T5138 000:034.876 - 0.006ms returns 0x01
T5138 000:034.886 JLINK_GetHardwareVersion()
T5138 000:034.894 - 0.011ms returns 0x16F30
T5138 000:034.903 JLINK_GetDLLVersion()  returns 67005
T5138 000:034.918 JLINK_GetFirmwareString(...)
T5138 000:034.927 - 0.012ms
T5138 000:039.201 JLINK_GetDLLVersion()  returns 67005
T5138 000:039.231 JLINK_GetCompileDateTime()
T5138 000:039.240 - 0.012ms
T5138 000:040.345 JLINK_GetFirmwareString(...)
T5138 000:040.370 - 0.030ms
T5138 000:041.466 JLINK_GetHardwareVersion()
T5138 000:041.485 - 0.022ms returns 0x16F30
T5138 000:046.539 JLINK_TIF_Select(JLINKARM_TIF_SWD)
T5138 000:047.645 - 1.117ms returns 0x00
T5138 000:047.674 JLINK_SetSpeed(5000)
T5138 000:047.833 - 0.174ms
T5138 000:047.857 JLINK_GetId()
T5138 000:050.329   Found SW-DP with ID 0x1BA01477
T5138 000:066.068   Found SW-DP with ID 0x1BA01477
T5138 000:070.662   DPIDR: 0x1BA01477
T5138 000:071.888   Scanning AP map to find all available APs
T5138 000:073.898   AP[1]: Stopped AP scan as end of AP map has been reached
T5138 000:075.127   AP[0]: AHB-AP (IDR: 0x14770011)
T5138 000:076.384   Iterating through AP map to find AHB-AP to use
T5138 000:079.319   AP[0]: Core found
T5138 000:080.633   AP[0]: AHB-AP ROM base: 0xE00FF000
T5138 000:082.379   CPUID register: 0x411FC231. Implementer code: 0x41 (ARM)
T5138 000:083.570   Found Cortex-M3 r1p1, Little endian.
T5138 000:185.980    -- Max. mem block: 0x00010C40
T5138 000:186.144   CPU_ReadMem(4 bytes @ 0xE000EDF0)
T5138 000:187.128   CPU_WriteMem(4 bytes @ 0xE000EDF0)
T5138 000:187.682   CPU_ReadMem(4 bytes @ 0xE0002000)
T5138 000:190.856   FPUnit: 6 code (BP) slots and 2 literal slots
T5138 000:190.904   CPU_ReadMem(4 bytes @ 0xE000EDFC)
T5138 000:191.379   CPU_WriteMem(4 bytes @ 0xE000EDFC)
T5138 000:191.839   CPU_ReadMem(4 bytes @ 0xE0001000)
T5138 000:192.268   CPU_WriteMem(4 bytes @ 0xE0001000)
T5138 000:192.774   CPU_ReadMem(4 bytes @ 0xE000ED88)
T5138 000:193.229   CPU_WriteMem(4 bytes @ 0xE000ED88)
T5138 000:193.731   CPU_ReadMem(4 bytes @ 0xE000ED88)
T5138 000:194.276   CPU_WriteMem(4 bytes @ 0xE000ED88)
T5138 000:196.869   CoreSight components:
T5138 000:198.302   ROMTbl[0] @ E00FF000
T5138 000:198.331   CPU_ReadMem(64 bytes @ 0xE00FF000)
T5138 000:199.267   CPU_ReadMem(32 bytes @ 0xE000EFE0)
T5138 000:201.051   ROMTbl[0][0]: E000E000, CID: B105E00D, PID: 001BB000 SCS
T5138 000:201.079   CPU_ReadMem(32 bytes @ 0xE0001FE0)
T5138 000:204.049   ROMTbl[0][1]: E0001000, CID: B105E00D, PID: 001BB002 DWT
T5138 000:204.092   CPU_ReadMem(32 bytes @ 0xE0002FE0)
T5138 000:206.274   ROMTbl[0][2]: E0002000, CID: B105E00D, PID: 000BB003 FPB
T5138 000:206.304   CPU_ReadMem(32 bytes @ 0xE0000FE0)
T5138 000:208.105   ROMTbl[0][3]: E0000000, CID: B105E00D, PID: 001BB001 ITM
T5138 000:208.131   CPU_ReadMem(32 bytes @ 0xE0040FE0)
T5138 000:209.872   ROMTbl[0][4]: E0040000, CID: B105900D, PID: 001BB923 TPIU-Lite
T5138 000:209.899   CPU_ReadMem(32 bytes @ 0xE0041FE0)
T5138 000:211.847   ROMTbl[0][5]: E0041000, CID: B105900D, PID: 101BB924 ETM-M3
T5138 000:212.268 - 164.428ms   returns 0x1BA01477
T5138 000:212.304 JLINK_GetDLLVersion()  returns 67005
T5138 000:212.315 JLINK_CORE_GetFound()
T5138 000:212.324 - 0.013ms returns 0x30000FF
T5138 000:212.335 JLINK_GetDebugInfo(0x100 = JLINKARM_ROM_TABLE_ADDR_INDEX)
T5138 000:212.350   Value=0xE00FF000
T5138 000:212.362 - 0.030ms returns 0x00
T5138 000:213.638 JLINK_GetDebugInfo(0x100 = JLINKARM_ROM_TABLE_ADDR_INDEX)
T5138 000:213.658   Value=0xE00FF000
T5138 000:213.670 - 0.035ms returns 0x00
T5138 000:213.679 JLINK_GetDebugInfo(0x101 = JLINKARM_DEBUG_INFO_ETM_ADDR_INDEX)
T5138 000:213.687   Value=0xE0041000
T5138 000:213.698 - 0.022ms returns 0x00
T5138 000:213.713   JLINK_ReadMemEx(0xE0041FD0, 0x0020 Bytes, ..., Flags = 0x02000004)
T5138 000:213.742   CPU_ReadMem(32 bytes @ 0xE0041FD0)
T5138 000:214.413   Data:  04 00 00 00 00 00 00 00 00 00 00 00 00 00 00 00 ...
T5138 000:214.437 - 0.730ms returns 0x20
T5138 000:214.448 JLINK_GetDebugInfo(0x102 = JLINKARM_DEBUG_INFO_MTB_ADDR_INDEX)
T5138 000:214.460   Value=0x00000000
T5138 000:214.472 - 0.027ms returns 0x00
T5138 000:214.481 JLINK_GetDebugInfo(0x103 = JLINKARM_DEBUG_INFO_TPIU_ADDR_INDEX)
T5138 000:214.489   Value=0xE0040000
T5138 000:214.501 - 0.024ms returns 0x00
T5138 000:214.510 JLINK_GetDebugInfo(0x104 = JLINKARM_DEBUG_INFO_ITM_ADDR_INDEX)
T5138 000:214.518   Value=0xE0000000
T5138 000:214.530 - 0.024ms returns 0x00
T5138 000:214.538 JLINK_GetDebugInfo(0x105 = JLINKARM_DEBUG_INFO_DWT_ADDR_INDEX)
T5138 000:214.546   Value=0xE0001000
T5138 000:214.558 - 0.023ms returns 0x00
T5138 000:214.566 JLINK_GetDebugInfo(0x106 = JLINKARM_DEBUG_INFO_FPB_ADDR_INDEX)
T5138 000:214.574   Value=0xE0002000
T5138 000:214.586 - 0.023ms returns 0x00
T5138 000:214.595 JLINK_GetDebugInfo(0x107 = JLINKARM_DEBUG_INFO_NVIC_ADDR_INDEX)
T5138 000:214.603   Value=0xE000E000
T5138 000:214.614 - 0.023ms returns 0x00
T5138 000:214.623 JLINK_GetDebugInfo(0x10C = JLINKARM_DEBUG_INFO_DBG_ADDR_INDEX)
T5138 000:214.632   Value=0xE000EDF0
T5138 000:214.643 - 0.024ms returns 0x00
T5138 000:214.652 JLINK_GetDebugInfo(0x01 = Unknown)
T5138 000:214.662   Value=0x00000000
T5138 000:214.674 - 0.025ms returns 0x00
T5138 000:214.684 JLINK_ReadMemU32(0xE000ED00, 0x0001 Items, ...)
T5138 000:214.697   CPU_ReadMem(4 bytes @ 0xE000ED00)
T5138 000:215.099   Data:  31 C2 1F 41
T5138 000:215.116    - CPUID
T5138 000:215.128 - 0.447ms returns 1
T5138 000:215.138 JLINK_GetDebugInfo(0x10F = JLINKARM_DEBUG_INFO_HAS_CORTEX_M_SECURITY_EXT_INDEX)
T5138 000:215.147   Value=0x00000000
T5138 000:215.158 - 0.024ms returns 0x00
T5138 000:215.169 JLINK_SetResetType(JLINKARM_CM3_RESET_TYPE_NORMAL)
T5138 000:215.177 - 0.012ms returns JLINKARM_CM3_RESET_TYPE_NORMAL
T5138 000:215.185 JLINK_Reset()
T5138 000:215.203   CPU is running
T5138 000:215.216   CPU_WriteMem(4 bytes @ 0xE000EDF0)
T5138 000:215.620   CPU is running
T5138 000:215.641   CPU_WriteMem(4 bytes @ 0xE000EDFC)
T5138 000:217.167   Reset: Halt core after reset via DEMCR.VC_CORERESET.
T5138 000:220.492   Reset: Reset device via AIRCR.SYSRESETREQ.
T5138 000:220.567   CPU is running
T5138 000:220.583   CPU_WriteMem(4 bytes @ 0xE000ED0C)
T5138 000:273.994   CPU_ReadMem(4 bytes @ 0xE000EDF0)
T5138 000:274.591   CPU_ReadMem(4 bytes @ 0xE000EDF0)
T5138 000:275.110   CPU is running
T5138 000:275.156   CPU_WriteMem(4 bytes @ 0xE000EDF0)
T5138 000:275.659   CPU is running
T5138 000:275.698   CPU_WriteMem(4 bytes @ 0xE000EDFC)
T5138 000:281.946   CPU_ReadMem(4 bytes @ 0xE000EDF0)
T5138 000:285.930   CPU_WriteMem(4 bytes @ 0xE0002000)
T5138 000:286.680   CPU_ReadMem(4 bytes @ 0xE000EDFC)
T5138 000:287.104   CPU_ReadMem(4 bytes @ 0xE0001000)
T5138 000:287.522 - 72.346ms
T5138 000:287.603 JLINK_Halt()
T5138 000:287.619 - 0.022ms returns 0x00
T5138 000:287.636 JLINK_ReadMemU32(0xE000EDF0, 0x0001 Items, ...)
T5138 000:287.659   CPU_ReadMem(4 bytes @ 0xE000EDF0)
T5138 000:288.033   Data:  03 00 03 00
T5138 000:288.055    - DHCSR
T5138 000:288.075 - 0.446ms returns 1
T5138 000:288.091 JLINK_WriteU32(0xE000EDF0, 0xA05F0003)
T5138 000:288.104    - DHCSR
T5138 000:288.138   CPU_WriteMem(4 bytes @ 0xE000EDF0)
T5138 000:288.513 - 0.429ms returns 0
T5138 000:288.530 JLINK_WriteU32(0xE000EDFC, 0x01000000)
T5138 000:288.543    - DEMCR
T5138 000:288.569   CPU_WriteMem(4 bytes @ 0xE000EDFC)
T5138 000:288.977 - 0.455ms returns 0
T5138 000:296.148 JLINK_GetHWStatus(...)
T5138 000:296.450 - 0.320ms returns 0x00
T5138 000:300.307 JLINK_GetNumBPUnits(Type = 0xFFFFFF00)
T5138 000:300.333 - 0.030ms returns 0x06
T5138 000:300.343 JLINK_GetNumBPUnits(Type = 0xF0)
T5138 000:300.352 - 0.012ms returns 0x2000
T5138 000:300.360 JLINK_GetNumWPUnits()
T5138 000:300.368 - 0.011ms returns 0x04
T5138 000:304.158 JLINK_GetSpeed()
T5138 000:304.189 - 0.034ms returns 0xFA0
T5138 000:306.400 JLINK_ReadMemU32(0xE000E004, 0x0001 Items, ...)
T5138 000:306.430   CPU_ReadMem(4 bytes @ 0xE000E004)
T5138 000:306.972   Data:  01 00 00 00
T5138 000:306.987 - 0.591ms returns 1
T5138 000:306.997 JLINK_ReadMemU32(0xE000E004, 0x0001 Items, ...)
T5138 000:307.010   CPU_ReadMem(4 bytes @ 0xE000E004)
T5138 000:307.377   Data:  01 00 00 00
T5138 000:307.407 - 0.413ms returns 1
T5138 000:307.419 JLINK_WriteMemEx(0xE0001000, 0x001C Bytes, ..., Flags = 0x02000004)
T5138 000:307.428   Data:  01 00 00 00 00 00 00 00 00 00 00 00 00 00 00 00 ...
T5138 000:307.632   CPU_WriteMem(28 bytes @ 0xE0001000)
T5138 000:308.153 - 0.745ms returns 0x1C
T5138 000:308.174 JLINK_Halt()
T5138 000:308.182 - 0.012ms returns 0x00
T5138 000:308.191 JLINK_IsHalted()
T5138 000:308.200 - 0.013ms returns TRUE
T5138 000:311.430 JLINK_WriteMem(0x20000000, 0x0164 Bytes, ...)
T5138 000:311.448   Data:  00 BE 0A E0 0D 78 2D 06 68 40 08 24 40 00 00 D3 ...
T5138 000:311.657   CPU_WriteMem(356 bytes @ 0x20000000)
T5138 000:314.013 - 2.606ms returns 0x164
T5138 000:314.084 JLINK_WriteReg(R0, 0x08000000)
T5138 000:314.097 - 0.017ms returns 0x00
T5138 000:314.106 JLINK_WriteReg(R1, 0x007A1200)
T5138 000:314.114 - 0.012ms returns 0x00
T5138 000:314.123 JLINK_WriteReg(R2, 0x00000001)
T5138 000:314.132 - 0.012ms returns 0x00
T5138 000:314.140 JLINK_WriteReg(R3, 0x00000000)
T5138 000:314.149 - 0.012ms returns 0x00
T5138 000:314.157 JLINK_WriteReg(R4, 0x00000000)
T5138 000:314.165 - 0.012ms returns 0x00
T5138 000:314.174 JLINK_WriteReg(R5, 0x00000000)
T5138 000:314.182 - 0.012ms returns 0x00
T5138 000:314.191 JLINK_WriteReg(R6, 0x00000000)
T5138 000:314.199 - 0.012ms returns 0x00
T5138 000:314.208 JLINK_WriteReg(R7, 0x00000000)
T5138 000:314.216 - 0.012ms returns 0x00
T5138 000:314.225 JLINK_WriteReg(R8, 0x00000000)
T5138 000:314.234 - 0.012ms returns 0x00
T5138 000:314.243 JLINK_WriteReg(R9, 0x20000160)
T5138 000:314.251 - 0.012ms returns 0x00
T5138 000:314.260 JLINK_WriteReg(R10, 0x00000000)
T5138 000:314.267 - 0.011ms returns 0x00
T5138 000:314.276 JLINK_WriteReg(R11, 0x00000000)
T5138 000:314.284 - 0.011ms returns 0x00
T5138 000:314.293 JLINK_WriteReg(R12, 0x00000000)
T5138 000:314.301 - 0.012ms returns 0x00
T5138 000:314.309 JLINK_WriteReg(R13 (SP), 0x20001000)
T5138 000:314.319 - 0.013ms returns 0x00
T5138 000:314.327 JLINK_WriteReg(R14, 0x20000001)
T5138 000:314.335 - 0.011ms returns 0x00
T5138 000:314.351 JLINK_WriteReg(R15 (PC), 0x20000038)
T5138 000:314.360 - 0.012ms returns 0x00
T5138 000:314.368 JLINK_WriteReg(XPSR, 0x01000000)
T5138 000:314.376 - 0.011ms returns 0x00
T5138 000:314.384 JLINK_WriteReg(MSP, 0x20001000)
T5138 000:314.395 - 0.017ms returns 0x00
T5138 000:314.405 JLINK_WriteReg(PSP, 0x20001000)
T5138 000:314.413 - 0.012ms returns 0x00
T5138 000:314.422 JLINK_WriteReg(CFBP, 0x00000000)
T5138 000:314.430 - 0.012ms returns 0x00
T5138 000:314.439   JLINK_SetBPEx(Addr = 0x20000000, Type = 0xFFFFFFF2)
T5138 000:314.455   CPU_ReadMem(2 bytes @ 0x20000000)
T5138 000:314.855 - 0.429ms returns 0x00000001
T5138 000:314.875 JLINK_Go()
T5138 000:314.887   CPU_WriteMem(2 bytes @ 0x20000000)
T5138 000:315.249   CPU_ReadMem(4 bytes @ 0xE0001000)
T5138 000:315.584   CPU_WriteMem(4 bytes @ 0xE0002008)
T5138 000:315.598   CPU_WriteMem(4 bytes @ 0xE000200C)
T5138 000:315.616   CPU_WriteMem(4 bytes @ 0xE0002010)
T5138 000:315.646   CPU_WriteMem(4 bytes @ 0xE0002014)
T5138 000:315.658   CPU_WriteMem(4 bytes @ 0xE0002018)
T5138 000:315.674   CPU_WriteMem(4 bytes @ 0xE000201C)
T5138 000:317.103   CPU_WriteMem(4 bytes @ 0xE0001004)
T5138 000:320.189 - 5.332ms
T5138 000:320.216 JLINK_IsHalted()
T5138 000:322.914   CPU_ReadMem(2 bytes @ 0x20000000)
T5138 000:323.350 - 3.140ms returns TRUE
T5138 000:323.364 JLINK_ReadReg(R15 (PC))
T5138 000:323.376 - 0.017ms returns 0x20000000
T5138 000:323.387 JLINK_ClrBPEx(BPHandle = 0x00000001)
T5138 000:323.396 - 0.014ms returns 0x00
T5138 000:323.407 JLINK_ReadReg(R0)
T5138 000:323.417 - 0.014ms returns 0x00000000
T5138 000:323.737 JLINK_WriteReg(R0, 0x08000000)
T5138 000:323.755 - 0.023ms returns 0x00
T5138 000:323.766 JLINK_WriteReg(R1, 0x00000800)
T5138 000:323.776 - 0.014ms returns 0x00
T5138 000:323.786 JLINK_WriteReg(R2, 0x000000FF)
T5138 000:323.796 - 0.014ms returns 0x00
T5138 000:323.806 JLINK_WriteReg(R3, 0x00000000)
T5138 000:323.816 - 0.014ms returns 0x00
T5138 000:323.827 JLINK_WriteReg(R4, 0x00000000)
T5138 000:323.836 - 0.014ms returns 0x00
T5138 000:323.846 JLINK_WriteReg(R5, 0x00000000)
T5138 000:323.855 - 0.014ms returns 0x00
T5138 000:323.866 JLINK_WriteReg(R6, 0x00000000)
T5138 000:323.876 - 0.014ms returns 0x00
T5138 000:323.886 JLINK_WriteReg(R7, 0x00000000)
T5138 000:323.895 - 0.014ms returns 0x00
T5138 000:323.906 JLINK_WriteReg(R8, 0x00000000)
T5138 000:323.915 - 0.013ms returns 0x00
T5138 000:323.925 JLINK_WriteReg(R9, 0x20000160)
T5138 000:323.934 - 0.014ms returns 0x00
T5138 000:323.944 JLINK_WriteReg(R10, 0x00000000)
T5138 000:323.954 - 0.014ms returns 0x00
T5138 000:323.965 JLINK_WriteReg(R11, 0x00000000)
T5138 000:323.975 - 0.014ms returns 0x00
T5138 000:323.985 JLINK_WriteReg(R12, 0x00000000)
T5138 000:323.994 - 0.014ms returns 0x00
T5138 000:324.005 JLINK_WriteReg(R13 (SP), 0x20001000)
T5138 000:324.015 - 0.015ms returns 0x00
T5138 000:324.025 JLINK_WriteReg(R14, 0x20000001)
T5138 000:324.039 - 0.018ms returns 0x00
T5138 000:324.050 JLINK_WriteReg(R15 (PC), 0x20000020)
T5138 000:324.059 - 0.014ms returns 0x00
T5138 000:324.070 JLINK_WriteReg(XPSR, 0x01000000)
T5138 000:324.080 - 0.014ms returns 0x00
T5138 000:324.090 JLINK_WriteReg(MSP, 0x20001000)
T5138 000:324.099 - 0.014ms returns 0x00
T5138 000:324.110 JLINK_WriteReg(PSP, 0x20001000)
T5138 000:324.120 - 0.014ms returns 0x00
T5138 000:324.130 JLINK_WriteReg(CFBP, 0x00000000)
T5138 000:324.139 - 0.014ms returns 0x00
T5138 000:324.151   JLINK_SetBPEx(Addr = 0x20000000, Type = 0xFFFFFFF2)
T5138 000:324.165 - 0.019ms returns 0x00000002
T5138 000:324.175 JLINK_Go()
T5138 000:324.192   CPU_ReadMem(4 bytes @ 0xE0001000)
T5138 000:327.520 - 3.361ms
T5138 000:327.546 JLINK_IsHalted()
T5138 000:330.633   CPU_ReadMem(2 bytes @ 0x20000000)
T5138 000:331.035 - 3.501ms returns TRUE
T5138 000:331.056 JLINK_ReadReg(R15 (PC))
T5138 000:331.067 - 0.016ms returns 0x20000000
T5138 000:331.077 JLINK_ClrBPEx(BPHandle = 0x00000002)
T5138 000:331.086 - 0.013ms returns 0x00
T5138 000:331.095 JLINK_ReadReg(R0)
T5138 000:331.104 - 0.012ms returns 0x00000001
T5138 000:331.115 JLINK_WriteReg(R0, 0x08000000)
T5138 000:331.124 - 0.013ms returns 0x00
T5138 000:331.133 JLINK_WriteReg(R1, 0x00000800)
T5138 000:331.141 - 0.012ms returns 0x00
T5138 000:331.150 JLINK_WriteReg(R2, 0x000000FF)
T5138 000:331.192 - 0.048ms returns 0x00
T5138 000:331.203 JLINK_WriteReg(R3, 0x00000000)
T5138 000:331.212 - 0.012ms returns 0x00
T5138 000:331.220 JLINK_WriteReg(R4, 0x00000000)
T5138 000:331.228 - 0.011ms returns 0x00
T5138 000:331.241 JLINK_WriteReg(R5, 0x00000000)
T5138 000:331.249 - 0.012ms returns 0x00
T5138 000:331.257 JLINK_WriteReg(R6, 0x00000000)
T5138 000:331.266 - 0.012ms returns 0x00
T5138 000:331.275 JLINK_WriteReg(R7, 0x00000000)
T5138 000:331.283 - 0.012ms returns 0x00
T5138 000:331.292 JLINK_WriteReg(R8, 0x00000000)
T5138 000:331.300 - 0.012ms returns 0x00
T5138 000:331.309 JLINK_WriteReg(R9, 0x20000160)
T5138 000:331.317 - 0.013ms returns 0x00
T5138 000:331.327 JLINK_WriteReg(R10, 0x00000000)
T5138 000:331.334 - 0.011ms returns 0x00
T5138 000:331.342 JLINK_WriteReg(R11, 0x00000000)
T5138 000:331.350 - 0.012ms returns 0x00
T5138 000:331.359 JLINK_WriteReg(R12, 0x00000000)
T5138 000:331.367 - 0.011ms returns 0x00
T5138 000:331.374 JLINK_WriteReg(R13 (SP), 0x20001000)
T5138 000:331.382 - 0.012ms returns 0x00
T5138 000:331.391 JLINK_WriteReg(R14, 0x20000001)
T5138 000:331.399 - 0.011ms returns 0x00
T5138 000:331.407 JLINK_WriteReg(R15 (PC), 0x200000B6)
T5138 000:331.415 - 0.011ms returns 0x00
T5138 000:331.423 JLINK_WriteReg(XPSR, 0x01000000)
T5138 000:331.431 - 0.012ms returns 0x00
T5138 000:331.440 JLINK_WriteReg(MSP, 0x20001000)
T5138 000:331.447 - 0.011ms returns 0x00
T5138 000:331.456 JLINK_WriteReg(PSP, 0x20001000)
T5138 000:331.464 - 0.011ms returns 0x00
T5138 000:331.472 JLINK_WriteReg(CFBP, 0x00000000)
T5138 000:331.480 - 0.011ms returns 0x00
T5138 000:331.489   JLINK_SetBPEx(Addr = 0x20000000, Type = 0xFFFFFFF2)
T5138 000:331.501 - 0.016ms returns 0x00000003
T5138 000:331.509 JLINK_Go()
T5138 000:331.525   CPU_ReadMem(4 bytes @ 0xE0001000)
T5138 000:334.840 - 3.341ms
T5138 000:334.858 JLINK_IsHalted()
T5138 000:335.186 - 0.361ms returns FALSE
T5138 000:348.576 JLINK_IsHalted()
T5138 000:349.100 - 0.536ms returns FALSE
T5138 000:351.266 JLINK_IsHalted()
T5138 000:351.751 - 0.492ms returns FALSE
T5138 000:353.178 JLINK_IsHalted()
T5138 000:353.597 - 0.425ms returns FALSE
T5138 000:355.177 JLINK_IsHalted()
T5138 000:355.664 - 0.495ms returns FALSE
T5138 000:357.175 JLINK_IsHalted()
T5138 000:359.926   CPU_ReadMem(2 bytes @ 0x20000000)
T5138 000:360.361 - 3.202ms returns TRUE
T5138 000:360.385 JLINK_ReadReg(R15 (PC))
T5138 000:360.400 - 0.020ms returns 0x20000000
T5138 000:360.411 JLINK_ClrBPEx(BPHandle = 0x00000003)
T5138 000:360.422 - 0.015ms returns 0x00
T5138 000:360.433 JLINK_ReadReg(R0)
T5138 000:360.443 - 0.014ms returns 0x00000000
T5138 000:362.097 JLINK_WriteReg(R0, 0x08000800)
T5138 000:362.128 - 0.036ms returns 0x00
T5138 000:362.139 JLINK_WriteReg(R1, 0x00000800)
T5138 000:362.149 - 0.014ms returns 0x00
T5138 000:362.158 JLINK_WriteReg(R2, 0x000000FF)
T5138 000:362.167 - 0.013ms returns 0x00
T5138 000:362.177 JLINK_WriteReg(R3, 0x00000000)
T5138 000:362.186 - 0.013ms returns 0x00
T5138 000:362.196 JLINK_WriteReg(R4, 0x00000000)
T5138 000:362.205 - 0.013ms returns 0x00
T5138 000:362.214 JLINK_WriteReg(R5, 0x00000000)
T5138 000:362.223 - 0.012ms returns 0x00
T5138 000:362.232 JLINK_WriteReg(R6, 0x00000000)
T5138 000:362.241 - 0.013ms returns 0x00
T5138 000:362.251 JLINK_WriteReg(R7, 0x00000000)
T5138 000:362.260 - 0.013ms returns 0x00
T5138 000:362.270 JLINK_WriteReg(R8, 0x00000000)
T5138 000:362.279 - 0.013ms returns 0x00
T5138 000:362.289 JLINK_WriteReg(R9, 0x20000160)
T5138 000:362.298 - 0.013ms returns 0x00
T5138 000:362.307 JLINK_WriteReg(R10, 0x00000000)
T5138 000:362.316 - 0.013ms returns 0x00
T5138 000:362.326 JLINK_WriteReg(R11, 0x00000000)
T5138 000:362.334 - 0.012ms returns 0x00
T5138 000:362.344 JLINK_WriteReg(R12, 0x00000000)
T5138 000:362.353 - 0.013ms returns 0x00
T5138 000:362.362 JLINK_WriteReg(R13 (SP), 0x20001000)
T5138 000:362.372 - 0.014ms returns 0x00
T5138 000:362.382 JLINK_WriteReg(R14, 0x20000001)
T5138 000:362.390 - 0.012ms returns 0x00
T5138 000:362.399 JLINK_WriteReg(R15 (PC), 0x20000020)
T5138 000:362.417 - 0.021ms returns 0x00
T5138 000:362.426 JLINK_WriteReg(XPSR, 0x01000000)
T5138 000:362.435 - 0.013ms returns 0x00
T5138 000:362.445 JLINK_WriteReg(MSP, 0x20001000)
T5138 000:362.454 - 0.012ms returns 0x00
T5138 000:362.463 JLINK_WriteReg(PSP, 0x20001000)
T5138 000:362.472 - 0.013ms returns 0x00
T5138 000:362.481 JLINK_WriteReg(CFBP, 0x00000000)
T5138 000:362.490 - 0.012ms returns 0x00
T5138 000:362.500   JLINK_SetBPEx(Addr = 0x20000000, Type = 0xFFFFFFF2)
T5138 000:362.515 - 0.019ms returns 0x00000004
T5138 000:362.525 JLINK_Go()
T5138 000:362.542   CPU_ReadMem(4 bytes @ 0xE0001000)
T5138 000:365.842 - 3.338ms
T5138 000:365.876 JLINK_IsHalted()
T5138 000:368.602   CPU_ReadMem(2 bytes @ 0x20000000)
T5138 000:369.037 - 3.176ms returns TRUE
T5138 000:369.065 JLINK_ReadReg(R15 (PC))
T5138 000:369.078 - 0.017ms returns 0x20000000
T5138 000:369.090 JLINK_ClrBPEx(BPHandle = 0x00000004)
T5138 000:369.100 - 0.014ms returns 0x00
T5138 000:369.112 JLINK_ReadReg(R0)
T5138 000:369.122 - 0.014ms returns 0x00000001
T5138 000:369.135 JLINK_WriteReg(R0, 0x08000800)
T5138 000:369.145 - 0.014ms returns 0x00
T5138 000:369.156 JLINK_WriteReg(R1, 0x00000800)
T5138 000:369.166 - 0.013ms returns 0x00
T5138 000:369.177 JLINK_WriteReg(R2, 0x000000FF)
T5138 000:369.187 - 0.013ms returns 0x00
T5138 000:369.198 JLINK_WriteReg(R3, 0x00000000)
T5138 000:369.208 - 0.014ms returns 0x00
T5138 000:369.220 JLINK_WriteReg(R4, 0x00000000)
T5138 000:369.229 - 0.014ms returns 0x00
T5138 000:369.241 JLINK_WriteReg(R5, 0x00000000)
T5138 000:369.250 - 0.014ms returns 0x00
T5138 000:369.263 JLINK_WriteReg(R6, 0x00000000)
T5138 000:369.272 - 0.013ms returns 0x00
T5138 000:369.283 JLINK_WriteReg(R7, 0x00000000)
T5138 000:369.292 - 0.013ms returns 0x00
T5138 000:369.305 JLINK_WriteReg(R8, 0x00000000)
T5138 000:369.314 - 0.013ms returns 0x00
T5138 000:369.325 JLINK_WriteReg(R9, 0x20000160)
T5138 000:369.333 - 0.013ms returns 0x00
T5138 000:369.346 JLINK_WriteReg(R10, 0x00000000)
T5138 000:369.355 - 0.014ms returns 0x00
T5138 000:369.367 JLINK_WriteReg(R11, 0x00000000)
T5138 000:369.377 - 0.014ms returns 0x00
T5138 000:369.389 JLINK_WriteReg(R12, 0x00000000)
T5138 000:369.399 - 0.014ms returns 0x00
T5138 000:369.414 JLINK_WriteReg(R13 (SP), 0x20001000)
T5138 000:369.424 - 0.014ms returns 0x00
T5138 000:369.443 JLINK_WriteReg(R14, 0x20000001)
T5138 000:369.453 - 0.014ms returns 0x00
T5138 000:369.467 JLINK_WriteReg(R15 (PC), 0x200000B6)
T5138 000:369.477 - 0.014ms returns 0x00
T5138 000:369.489 JLINK_WriteReg(XPSR, 0x01000000)
T5138 000:369.499 - 0.015ms returns 0x00
T5138 000:369.512 JLINK_WriteReg(MSP, 0x20001000)
T5138 000:369.522 - 0.015ms returns 0x00
T5138 000:369.534 JLINK_WriteReg(PSP, 0x20001000)
T5138 000:369.545 - 0.015ms returns 0x00
T5138 000:369.557 JLINK_WriteReg(CFBP, 0x00000000)
T5138 000:369.568 - 0.015ms returns 0x00
T5138 000:369.580   JLINK_SetBPEx(Addr = 0x20000000, Type = 0xFFFFFFF2)
T5138 000:369.595 - 0.019ms returns 0x00000005
T5138 000:369.608 JLINK_Go()
T5138 000:369.623   CPU_ReadMem(4 bytes @ 0xE0001000)
T5138 000:372.794 - 3.202ms
T5138 000:372.823 JLINK_IsHalted()
T5138 000:373.218 - 0.410ms returns FALSE
T5138 000:378.189 JLINK_IsHalted()
T5138 000:378.776 - 0.602ms returns FALSE
T5138 000:380.249 JLINK_IsHalted()
T5138 000:380.753 - 0.510ms returns FALSE
T5138 000:382.226 JLINK_IsHalted()
T5138 000:382.687 - 0.467ms returns FALSE
T5138 000:384.749 JLINK_IsHalted()
T5138 000:385.200 - 0.460ms returns FALSE
T5138 000:387.182 JLINK_IsHalted()
T5138 000:387.656 - 0.482ms returns FALSE
T5138 000:389.206 JLINK_IsHalted()
T5138 000:389.650 - 0.452ms returns FALSE
T5138 000:391.150 JLINK_IsHalted()
T5138 000:391.614 - 0.481ms returns FALSE
T5138 000:395.421 JLINK_IsHalted()
T5138 000:398.162   CPU_ReadMem(2 bytes @ 0x20000000)
T5138 000:398.604 - 3.194ms returns TRUE
T5138 000:398.628 JLINK_ReadReg(R15 (PC))
T5138 000:398.641 - 0.018ms returns 0x20000000
T5138 000:398.654 JLINK_ClrBPEx(BPHandle = 0x00000005)
T5138 000:398.690 - 0.043ms returns 0x00
T5138 000:398.706 JLINK_ReadReg(R0)
T5138 000:398.716 - 0.016ms returns 0x00000000
T5138 000:399.142 JLINK_WriteReg(R0, 0x08001000)
T5138 000:399.162 - 0.026ms returns 0x00
T5138 000:399.174 JLINK_WriteReg(R1, 0x00000800)
T5138 000:399.185 - 0.015ms returns 0x00
T5138 000:399.195 JLINK_WriteReg(R2, 0x000000FF)
T5138 000:399.206 - 0.015ms returns 0x00
T5138 000:399.216 JLINK_WriteReg(R3, 0x00000000)
T5138 000:399.226 - 0.015ms returns 0x00
T5138 000:399.237 JLINK_WriteReg(R4, 0x00000000)
T5138 000:399.247 - 0.014ms returns 0x00
T5138 000:399.257 JLINK_WriteReg(R5, 0x00000000)
T5138 000:399.267 - 0.014ms returns 0x00
T5138 000:399.278 JLINK_WriteReg(R6, 0x00000000)
T5138 000:399.288 - 0.014ms returns 0x00
T5138 000:399.298 JLINK_WriteReg(R7, 0x00000000)
T5138 000:399.308 - 0.014ms returns 0x00
T5138 000:399.319 JLINK_WriteReg(R8, 0x00000000)
T5138 000:399.328 - 0.014ms returns 0x00
T5138 000:399.339 JLINK_WriteReg(R9, 0x20000160)
T5138 000:399.349 - 0.015ms returns 0x00
T5138 000:399.359 JLINK_WriteReg(R10, 0x00000000)
T5138 000:399.369 - 0.014ms returns 0x00
T5138 000:399.379 JLINK_WriteReg(R11, 0x00000000)
T5138 000:399.389 - 0.014ms returns 0x00
T5138 000:399.400 JLINK_WriteReg(R12, 0x00000000)
T5138 000:399.410 - 0.015ms returns 0x00
T5138 000:399.420 JLINK_WriteReg(R13 (SP), 0x20001000)
T5138 000:399.431 - 0.015ms returns 0x00
T5138 000:399.441 JLINK_WriteReg(R14, 0x20000001)
T5138 000:399.451 - 0.016ms returns 0x00
T5138 000:399.462 JLINK_WriteReg(R15 (PC), 0x20000020)
T5138 000:399.471 - 0.013ms returns 0x00
T5138 000:399.481 JLINK_WriteReg(XPSR, 0x01000000)
T5138 000:399.490 - 0.013ms returns 0x00
T5138 000:399.500 JLINK_WriteReg(MSP, 0x20001000)
T5138 000:399.508 - 0.013ms returns 0x00
T5138 000:399.518 JLINK_WriteReg(PSP, 0x20001000)
T5138 000:399.527 - 0.012ms returns 0x00
T5138 000:399.536 JLINK_WriteReg(CFBP, 0x00000000)
T5138 000:399.544 - 0.013ms returns 0x00
T5138 000:399.555   JLINK_SetBPEx(Addr = 0x20000000, Type = 0xFFFFFFF2)
T5138 000:399.569 - 0.019ms returns 0x00000006
T5138 000:399.579 JLINK_Go()
T5138 000:399.595   CPU_ReadMem(4 bytes @ 0xE0001000)
T5138 000:402.645 - 3.080ms
T5138 000:402.674 JLINK_IsHalted()
T5138 000:405.393   CPU_ReadMem(2 bytes @ 0x20000000)
T5138 000:405.756 - 3.090ms returns TRUE
T5138 000:405.772 JLINK_ReadReg(R15 (PC))
T5138 000:405.786 - 0.018ms returns 0x20000000
T5138 000:405.797 JLINK_ClrBPEx(BPHandle = 0x00000006)
T5138 000:405.809 - 0.017ms returns 0x00
T5138 000:405.821 JLINK_ReadReg(R0)
T5138 000:405.832 - 0.016ms returns 0x00000001
T5138 000:405.876 JLINK_WriteReg(R0, 0x08001000)
T5138 000:405.895 - 0.024ms returns 0x00
T5138 000:405.907 JLINK_WriteReg(R1, 0x00000800)
T5138 000:405.918 - 0.016ms returns 0x00
T5138 000:405.931 JLINK_WriteReg(R2, 0x000000FF)
T5138 000:405.942 - 0.016ms returns 0x00
T5138 000:405.954 JLINK_WriteReg(R3, 0x00000000)
T5138 000:405.965 - 0.016ms returns 0x00
T5138 000:405.977 JLINK_WriteReg(R4, 0x00000000)
T5138 000:405.988 - 0.017ms returns 0x00
T5138 000:406.000 JLINK_WriteReg(R5, 0x00000000)
T5138 000:406.010 - 0.016ms returns 0x00
T5138 000:406.022 JLINK_WriteReg(R6, 0x00000000)
T5138 000:406.034 - 0.016ms returns 0x00
T5138 000:406.045 JLINK_WriteReg(R7, 0x00000000)
T5138 000:406.057 - 0.016ms returns 0x00
T5138 000:406.069 JLINK_WriteReg(R8, 0x00000000)
T5138 000:406.080 - 0.016ms returns 0x00
T5138 000:406.092 JLINK_WriteReg(R9, 0x20000160)
T5138 000:406.103 - 0.017ms returns 0x00
T5138 000:406.115 JLINK_WriteReg(R10, 0x00000000)
T5138 000:406.127 - 0.016ms returns 0x00
T5138 000:406.138 JLINK_WriteReg(R11, 0x00000000)
T5138 000:406.149 - 0.016ms returns 0x00
T5138 000:406.161 JLINK_WriteReg(R12, 0x00000000)
T5138 000:406.172 - 0.016ms returns 0x00
T5138 000:406.184 JLINK_WriteReg(R13 (SP), 0x20001000)
T5138 000:406.195 - 0.016ms returns 0x00
T5138 000:406.207 JLINK_WriteReg(R14, 0x20000001)
T5138 000:406.217 - 0.016ms returns 0x00
T5138 000:406.229 JLINK_WriteReg(R15 (PC), 0x200000B6)
T5138 000:406.240 - 0.021ms returns 0x00
T5138 000:406.260 JLINK_WriteReg(XPSR, 0x01000000)
T5138 000:406.271 - 0.016ms returns 0x00
T5138 000:406.282 JLINK_WriteReg(MSP, 0x20001000)
T5138 000:406.298 - 0.021ms returns 0x00
T5138 000:406.310 JLINK_WriteReg(PSP, 0x20001000)
T5138 000:406.321 - 0.016ms returns 0x00
T5138 000:406.333 JLINK_WriteReg(CFBP, 0x00000000)
T5138 000:406.344 - 0.016ms returns 0x00
T5138 000:406.357   JLINK_SetBPEx(Addr = 0x20000000, Type = 0xFFFFFFF2)
T5138 000:406.374 - 0.022ms returns 0x00000007
T5138 000:406.386 JLINK_Go()
T5138 000:406.403   CPU_ReadMem(4 bytes @ 0xE0001000)
T5138 000:409.625 - 3.261ms
T5138 000:409.657 JLINK_IsHalted()
T5138 000:410.032 - 0.383ms returns FALSE
T5138 000:415.596 JLINK_IsHalted()
T5138 000:416.062 - 0.472ms returns FALSE
T5138 000:418.619 JLINK_IsHalted()
T5138 000:419.076 - 0.474ms returns FALSE
T5138 000:420.590 JLINK_IsHalted()
T5138 000:420.997 - 0.421ms returns FALSE
T5138 000:422.597 JLINK_IsHalted()
T5138 000:423.068 - 0.479ms returns FALSE
T5138 000:425.606 JLINK_IsHalted()
T5138 000:426.015 - 0.417ms returns FALSE
T5138 000:427.131 JLINK_IsHalted()
T5138 000:427.516 - 0.399ms returns FALSE
T5138 000:429.220 JLINK_IsHalted()
T5138 000:429.645 - 0.433ms returns FALSE
T5138 000:432.112 JLINK_IsHalted()
T5138 000:434.915   CPU_ReadMem(2 bytes @ 0x20000000)
T5138 000:435.456 - 3.358ms returns TRUE
T5138 000:435.476 JLINK_ReadReg(R15 (PC))
T5138 000:435.488 - 0.017ms returns 0x20000000
T5138 000:435.502 JLINK_ClrBPEx(BPHandle = 0x00000007)
T5138 000:435.514 - 0.015ms returns 0x00
T5138 000:435.524 JLINK_ReadReg(R0)
T5138 000:435.533 - 0.013ms returns 0x00000000
T5138 000:435.948 JLINK_WriteReg(R0, 0x00000001)
T5138 000:435.971 - 0.027ms returns 0x00
T5138 000:435.981 JLINK_WriteReg(R1, 0x00000800)
T5138 000:435.990 - 0.013ms returns 0x00
T5138 000:435.999 JLINK_WriteReg(R2, 0x000000FF)
T5138 000:436.008 - 0.012ms returns 0x00
T5138 000:436.017 JLINK_WriteReg(R3, 0x00000000)
T5138 000:436.026 - 0.013ms returns 0x00
T5138 000:436.036 JLINK_WriteReg(R4, 0x00000000)
T5138 000:436.044 - 0.013ms returns 0x00
T5138 000:436.054 JLINK_WriteReg(R5, 0x00000000)
T5138 000:436.063 - 0.012ms returns 0x00
T5138 000:436.072 JLINK_WriteReg(R6, 0x00000000)
T5138 000:436.080 - 0.013ms returns 0x00
T5138 000:436.090 JLINK_WriteReg(R7, 0x00000000)
T5138 000:436.099 - 0.013ms returns 0x00
T5138 000:436.108 JLINK_WriteReg(R8, 0x00000000)
T5138 000:436.117 - 0.012ms returns 0x00
T5138 000:436.126 JLINK_WriteReg(R9, 0x20000160)
T5138 000:436.135 - 0.020ms returns 0x00
T5138 000:436.153 JLINK_WriteReg(R10, 0x00000000)
T5138 000:436.167 - 0.018ms returns 0x00
T5138 000:436.176 JLINK_WriteReg(R11, 0x00000000)
T5138 000:436.185 - 0.013ms returns 0x00
T5138 000:436.195 JLINK_WriteReg(R12, 0x00000000)
T5138 000:436.203 - 0.013ms returns 0x00
T5138 000:436.213 JLINK_WriteReg(R13 (SP), 0x20001000)
T5138 000:436.222 - 0.014ms returns 0x00
T5138 000:436.232 JLINK_WriteReg(R14, 0x20000001)
T5138 000:436.240 - 0.012ms returns 0x00
T5138 000:436.249 JLINK_WriteReg(R15 (PC), 0x2000006A)
T5138 000:436.258 - 0.013ms returns 0x00
T5138 000:436.267 JLINK_WriteReg(XPSR, 0x01000000)
T5138 000:436.276 - 0.013ms returns 0x00
T5138 000:436.285 JLINK_WriteReg(MSP, 0x20001000)
T5138 000:436.294 - 0.013ms returns 0x00
T5138 000:436.303 JLINK_WriteReg(PSP, 0x20001000)
T5138 000:436.311 - 0.013ms returns 0x00
T5138 000:436.321 JLINK_WriteReg(CFBP, 0x00000000)
T5138 000:436.329 - 0.013ms returns 0x00
T5138 000:436.339   JLINK_SetBPEx(Addr = 0x20000000, Type = 0xFFFFFFF2)
T5138 000:436.353 - 0.019ms returns 0x00000008
T5138 000:436.363 JLINK_Go()
T5138 000:436.380   CPU_ReadMem(4 bytes @ 0xE0001000)
T5138 000:439.609 - 3.256ms
T5138 000:439.627 JLINK_IsHalted()
T5138 000:442.337   CPU_ReadMem(2 bytes @ 0x20000000)
T5138 000:442.754 - 3.145ms returns TRUE
T5138 000:442.782 JLINK_ReadReg(R15 (PC))
T5138 000:442.796 - 0.019ms returns 0x20000000
T5138 000:442.809 JLINK_ClrBPEx(BPHandle = 0x00000008)
T5138 000:442.821 - 0.016ms returns 0x00
T5138 000:442.882 JLINK_ReadReg(R0)
T5138 000:442.897 - 0.020ms returns 0x00000000
T5138 000:505.786 JLINK_WriteMem(0x20000000, 0x0164 Bytes, ...)
T5138 000:505.808   Data:  00 BE 0A E0 0D 78 2D 06 68 40 08 24 40 00 00 D3 ...
T5138 000:505.838   CPU_WriteMem(356 bytes @ 0x20000000)
T5138 000:508.305 - 2.538ms returns 0x164
T5138 000:508.365 JLINK_WriteReg(R0, 0x08000000)
T5138 000:508.381 - 0.022ms returns 0x00
T5138 000:508.393 JLINK_WriteReg(R1, 0x007A1200)
T5138 000:508.405 - 0.017ms returns 0x00
T5138 000:508.417 JLINK_WriteReg(R2, 0x00000002)
T5138 000:508.428 - 0.016ms returns 0x00
T5138 000:508.440 JLINK_WriteReg(R3, 0x00000000)
T5138 000:508.451 - 0.016ms returns 0x00
T5138 000:508.463 JLINK_WriteReg(R4, 0x00000000)
T5138 000:508.474 - 0.016ms returns 0x00
T5138 000:508.485 JLINK_WriteReg(R5, 0x00000000)
T5138 000:508.496 - 0.016ms returns 0x00
T5138 000:508.507 JLINK_WriteReg(R6, 0x00000000)
T5138 000:508.518 - 0.016ms returns 0x00
T5138 000:508.530 JLINK_WriteReg(R7, 0x00000000)
T5138 000:508.541 - 0.016ms returns 0x00
T5138 000:508.553 JLINK_WriteReg(R8, 0x00000000)
T5138 000:508.564 - 0.016ms returns 0x00
T5138 000:508.575 JLINK_WriteReg(R9, 0x20000160)
T5138 000:508.586 - 0.016ms returns 0x00
T5138 000:508.598 JLINK_WriteReg(R10, 0x00000000)
T5138 000:508.608 - 0.016ms returns 0x00
T5138 000:508.620 JLINK_WriteReg(R11, 0x00000000)
T5138 000:508.632 - 0.017ms returns 0x00
T5138 000:508.643 JLINK_WriteReg(R12, 0x00000000)
T5138 000:508.654 - 0.016ms returns 0x00
T5138 000:508.666 JLINK_WriteReg(R13 (SP), 0x20001000)
T5138 000:508.678 - 0.017ms returns 0x00
T5138 000:508.690 JLINK_WriteReg(R14, 0x20000001)
T5138 000:508.700 - 0.016ms returns 0x00
T5138 000:508.712 JLINK_WriteReg(R15 (PC), 0x20000038)
T5138 000:508.723 - 0.016ms returns 0x00
T5138 000:508.735 JLINK_WriteReg(XPSR, 0x01000000)
T5138 000:508.746 - 0.015ms returns 0x00
T5138 000:508.757 JLINK_WriteReg(MSP, 0x20001000)
T5138 000:508.767 - 0.015ms returns 0x00
T5138 000:508.779 JLINK_WriteReg(PSP, 0x20001000)
T5138 000:508.790 - 0.016ms returns 0x00
T5138 000:508.802 JLINK_WriteReg(CFBP, 0x00000000)
T5138 000:508.812 - 0.015ms returns 0x00
T5138 000:508.825   JLINK_SetBPEx(Addr = 0x20000000, Type = 0xFFFFFFF2)
T5138 000:508.847   CPU_ReadMem(2 bytes @ 0x20000000)
T5138 000:509.287 - 0.470ms returns 0x00000009
T5138 000:509.302 JLINK_Go()
T5138 000:509.317   CPU_WriteMem(2 bytes @ 0x20000000)
T5138 000:509.761   CPU_ReadMem(4 bytes @ 0xE0001000)
T5138 000:512.972 - 3.698ms
T5138 000:513.012 JLINK_IsHalted()
T5138 000:515.880   CPU_ReadMem(2 bytes @ 0x20000000)
T5138 000:516.260 - 3.267ms returns TRUE
T5138 000:516.292 JLINK_ReadReg(R15 (PC))
T5138 000:516.308 - 0.022ms returns 0x20000000
T5138 000:516.322 JLINK_ClrBPEx(BPHandle = 0x00000009)
T5138 000:516.334 - 0.018ms returns 0x00
T5138 000:516.348 JLINK_ReadReg(R0)
T5138 000:516.360 - 0.018ms returns 0x00000000
T5138 000:516.711 JLINK_WriteMem(0x20000164, 0x029C Bytes, ...)
T5138 000:516.730   Data:  C0 06 00 20 CD 01 00 08 3B 11 00 08 B1 10 00 08 ...
T5138 000:516.759   CPU_WriteMem(668 bytes @ 0x20000164)
T5138 000:520.500 - 3.810ms returns 0x29C
T5138 000:520.532 JLINK_WriteMem(0x20000400, 0x0164 Bytes, ...)
T5138 000:520.547   Data:  C0 09 AC E8 C0 09 AC E8 C0 09 8D 46 70 47 10 B5 ...
T5138 000:520.575   CPU_WriteMem(356 bytes @ 0x20000400)
T5138 000:522.857 - 2.350ms returns 0x164
T5138 000:522.898 JLINK_WriteReg(R0, 0x08000000)
T5138 000:522.916 - 0.025ms returns 0x00
T5138 000:522.930 JLINK_WriteReg(R1, 0x00000400)
T5138 000:522.944 - 0.020ms returns 0x00
T5138 000:522.958 JLINK_WriteReg(R2, 0x20000164)
T5138 000:522.971 - 0.020ms returns 0x00
T5138 000:522.985 JLINK_WriteReg(R3, 0x00000000)
T5138 000:522.998 - 0.019ms returns 0x00
T5138 000:523.012 JLINK_WriteReg(R4, 0x00000000)
T5138 000:523.025 - 0.019ms returns 0x00
T5138 000:523.039 JLINK_WriteReg(R5, 0x00000000)
T5138 000:523.051 - 0.018ms returns 0x00
T5138 000:523.065 JLINK_WriteReg(R6, 0x00000000)
T5138 000:523.078 - 0.018ms returns 0x00
T5138 000:523.090 JLINK_WriteReg(R7, 0x00000000)
T5138 000:523.113 - 0.029ms returns 0x00
T5138 000:523.127 JLINK_WriteReg(R8, 0x00000000)
T5138 000:523.139 - 0.019ms returns 0x00
T5138 000:523.153 JLINK_WriteReg(R9, 0x20000160)
T5138 000:523.166 - 0.019ms returns 0x00
T5138 000:523.180 JLINK_WriteReg(R10, 0x00000000)
T5138 000:523.194 - 0.020ms returns 0x00
T5138 000:523.208 JLINK_WriteReg(R11, 0x00000000)
T5138 000:523.221 - 0.019ms returns 0x00
T5138 000:523.235 JLINK_WriteReg(R12, 0x00000000)
T5138 000:523.247 - 0.018ms returns 0x00
T5138 000:523.261 JLINK_WriteReg(R13 (SP), 0x20001000)
T5138 000:523.275 - 0.020ms returns 0x00
T5138 000:523.289 JLINK_WriteReg(R14, 0x20000001)
T5138 000:523.307 - 0.024ms returns 0x00
T5138 000:523.320 JLINK_WriteReg(R15 (PC), 0x200000F4)
T5138 000:523.333 - 0.019ms returns 0x00
T5138 000:523.347 JLINK_WriteReg(XPSR, 0x01000000)
T5138 000:523.360 - 0.019ms returns 0x00
T5138 000:523.374 JLINK_WriteReg(MSP, 0x20001000)
T5138 000:523.387 - 0.019ms returns 0x00
T5138 000:523.400 JLINK_WriteReg(PSP, 0x20001000)
T5138 000:523.414 - 0.019ms returns 0x00
T5138 000:523.427 JLINK_WriteReg(CFBP, 0x00000000)
T5138 000:523.440 - 0.020ms returns 0x00
T5138 000:523.456   JLINK_SetBPEx(Addr = 0x20000000, Type = 0xFFFFFFF2)
T5138 000:523.483 - 0.034ms returns 0x0000000A
T5138 000:523.498 JLINK_Go()
T5138 000:523.523   CPU_ReadMem(4 bytes @ 0xE0001000)
T5138 000:526.659 - 3.181ms
T5138 000:526.748 JLINK_IsHalted()
T5138 000:527.243 - 0.513ms returns FALSE
T5138 000:535.331 JLINK_IsHalted()
T5138 000:536.177 - 0.869ms returns FALSE
T5138 000:538.344 JLINK_IsHalted()
T5138 000:538.825 - 0.495ms returns FALSE
T5138 000:540.359 JLINK_IsHalted()
T5138 000:540.760 - 0.412ms returns FALSE
T5138 000:542.250 JLINK_IsHalted()
T5138 000:542.788 - 0.547ms returns FALSE
T5138 000:544.211 JLINK_IsHalted()
T5138 000:544.629 - 0.451ms returns FALSE
T5138 000:546.259 JLINK_IsHalted()
T5138 000:546.613 - 0.365ms returns FALSE
T5138 000:549.714 JLINK_IsHalted()
T5138 000:550.179 - 0.479ms returns FALSE
T5138 000:551.772 JLINK_IsHalted()
T5138 000:552.163 - 0.400ms returns FALSE
T5138 000:554.271 JLINK_IsHalted()
T5138 000:554.668 - 0.405ms returns FALSE
T5138 000:556.267 JLINK_IsHalted()
T5138 000:556.746 - 0.486ms returns FALSE
T5138 000:558.264 JLINK_IsHalted()
T5138 000:561.087   CPU_ReadMem(2 bytes @ 0x20000000)
T5138 000:561.509 - 3.261ms returns TRUE
T5138 000:561.534 JLINK_ReadReg(R15 (PC))
T5138 000:561.553 - 0.024ms returns 0x20000000
T5138 000:561.564 JLINK_ClrBPEx(BPHandle = 0x0000000A)
T5138 000:561.575 - 0.015ms returns 0x00
T5138 000:561.586 JLINK_ReadReg(R0)
T5138 000:561.596 - 0.014ms returns 0x00000000
T5138 000:562.523 JLINK_WriteMem(0x20000164, 0x029C Bytes, ...)
T5138 000:562.540   Data:  01 22 10 E0 10 4E 14 36 B1 42 01 D1 10 22 0A E0 ...
T5138 000:562.561   CPU_WriteMem(668 bytes @ 0x20000164)
T5138 000:566.234 - 3.728ms returns 0x29C
T5138 000:566.261 JLINK_WriteMem(0x20000400, 0x0164 Bytes, ...)
T5138 000:566.271   Data:  B1 FB F0 F0 0A 49 09 68 B1 FB F0 F0 00 F0 DC FA ...
T5138 000:566.293   CPU_WriteMem(356 bytes @ 0x20000400)
T5138 000:568.684 - 2.472ms returns 0x164
T5138 000:568.773 JLINK_WriteReg(R0, 0x08000400)
T5138 000:568.796 - 0.027ms returns 0x00
T5138 000:568.806 JLINK_WriteReg(R1, 0x00000400)
T5138 000:568.814 - 0.012ms returns 0x00
T5138 000:568.823 JLINK_WriteReg(R2, 0x20000164)
T5138 000:568.832 - 0.012ms returns 0x00
T5138 000:568.841 JLINK_WriteReg(R3, 0x00000000)
T5138 000:568.849 - 0.012ms returns 0x00
T5138 000:568.859 JLINK_WriteReg(R4, 0x00000000)
T5138 000:568.867 - 0.012ms returns 0x00
T5138 000:568.876 JLINK_WriteReg(R5, 0x00000000)
T5138 000:568.884 - 0.012ms returns 0x00
T5138 000:568.893 JLINK_WriteReg(R6, 0x00000000)
T5138 000:568.901 - 0.012ms returns 0x00
T5138 000:568.910 JLINK_WriteReg(R7, 0x00000000)
T5138 000:568.918 - 0.012ms returns 0x00
T5138 000:568.927 JLINK_WriteReg(R8, 0x00000000)
T5138 000:568.935 - 0.012ms returns 0x00
T5138 000:568.944 JLINK_WriteReg(R9, 0x20000160)
T5138 000:568.953 - 0.016ms returns 0x00
T5138 000:568.967 JLINK_WriteReg(R10, 0x00000000)
T5138 000:568.976 - 0.034ms returns 0x00
T5138 000:569.027 JLINK_WriteReg(R11, 0x00000000)
T5138 000:569.037 - 0.014ms returns 0x00
T5138 000:569.046 JLINK_WriteReg(R12, 0x00000000)
T5138 000:569.054 - 0.011ms returns 0x00
T5138 000:569.063 JLINK_WriteReg(R13 (SP), 0x20001000)
T5138 000:569.072 - 0.022ms returns 0x00
T5138 000:569.129 JLINK_WriteReg(R14, 0x20000001)
T5138 000:569.140 - 0.015ms returns 0x00
T5138 000:569.149 JLINK_WriteReg(R15 (PC), 0x200000F4)
T5138 000:569.158 - 0.013ms returns 0x00
T5138 000:569.167 JLINK_WriteReg(XPSR, 0x01000000)
T5138 000:569.176 - 0.013ms returns 0x00
T5138 000:569.185 JLINK_WriteReg(MSP, 0x20001000)
T5138 000:569.194 - 0.012ms returns 0x00
T5138 000:569.203 JLINK_WriteReg(PSP, 0x20001000)
T5138 000:569.211 - 0.012ms returns 0x00
T5138 000:569.220 JLINK_WriteReg(CFBP, 0x00000000)
T5138 000:569.229 - 0.012ms returns 0x00
T5138 000:569.238   JLINK_SetBPEx(Addr = 0x20000000, Type = 0xFFFFFFF2)
T5138 000:569.253 - 0.019ms returns 0x0000000B
T5138 000:569.263 JLINK_Go()
T5138 000:569.279   CPU_ReadMem(4 bytes @ 0xE0001000)
T5138 000:572.349 - 3.101ms
T5138 000:572.372 JLINK_IsHalted()
T5138 000:572.751 - 0.390ms returns FALSE
T5138 000:577.049 JLINK_IsHalted()
T5138 000:577.602 - 0.570ms returns FALSE
T5138 000:581.119 JLINK_IsHalted()
T5138 000:581.632 - 0.520ms returns FALSE
T5138 000:583.039 JLINK_IsHalted()
T5138 000:583.451 - 0.416ms returns FALSE
T5138 000:585.448 JLINK_IsHalted()
T5138 000:586.048 - 0.613ms returns FALSE
T5138 000:587.532 JLINK_IsHalted()
T5138 000:587.979 - 0.453ms returns FALSE
T5138 000:589.859 JLINK_IsHalted()
T5138 000:590.326 - 0.475ms returns FALSE
T5138 000:591.853 JLINK_IsHalted()
T5138 000:592.349 - 0.512ms returns FALSE
T5138 000:596.894 JLINK_IsHalted()
T5138 000:597.374 - 0.489ms returns FALSE
T5138 000:598.852 JLINK_IsHalted()
T5138 000:599.301 - 0.457ms returns FALSE
T5138 000:600.850 JLINK_IsHalted()
T5138 000:601.363 - 0.547ms returns FALSE
T5138 000:602.842 JLINK_IsHalted()
T5138 000:605.529   CPU_ReadMem(2 bytes @ 0x20000000)
T5138 000:605.960 - 3.131ms returns TRUE
T5138 000:605.986 JLINK_ReadReg(R15 (PC))
T5138 000:605.998 - 0.016ms returns 0x20000000
T5138 000:606.010 JLINK_ClrBPEx(BPHandle = 0x0000000B)
T5138 000:606.019 - 0.014ms returns 0x00
T5138 000:606.032 JLINK_ReadReg(R0)
T5138 000:606.043 - 0.015ms returns 0x00000000
T5138 000:606.507 JLINK_WriteMem(0x20000164, 0x029C Bytes, ...)
T5138 000:606.527   Data:  03 01 01 43 61 60 FF F7 23 FF 80 46 41 F2 88 39 ...
T5138 000:606.545   CPU_WriteMem(668 bytes @ 0x20000164)
T5138 000:610.354 - 3.855ms returns 0x29C
T5138 000:610.369 JLINK_WriteMem(0x20000400, 0x0164 Bytes, ...)
T5138 000:610.459   Data:  B0 FB F1 F0 00 90 00 BF 00 98 41 1E 00 91 FA D2 ...
T5138 000:610.478   CPU_WriteMem(356 bytes @ 0x20000400)
T5138 000:612.824 - 2.471ms returns 0x164
T5138 000:612.852 JLINK_WriteReg(R0, 0x08000800)
T5138 000:612.865 - 0.019ms returns 0x00
T5138 000:612.876 JLINK_WriteReg(R1, 0x00000400)
T5138 000:612.885 - 0.014ms returns 0x00
T5138 000:612.896 JLINK_WriteReg(R2, 0x20000164)
T5138 000:612.905 - 0.014ms returns 0x00
T5138 000:612.916 JLINK_WriteReg(R3, 0x00000000)
T5138 000:612.925 - 0.014ms returns 0x00
T5138 000:612.935 JLINK_WriteReg(R4, 0x00000000)
T5138 000:612.945 - 0.014ms returns 0x00
T5138 000:612.954 JLINK_WriteReg(R5, 0x00000000)
T5138 000:612.963 - 0.013ms returns 0x00
T5138 000:612.973 JLINK_WriteReg(R6, 0x00000000)
T5138 000:612.983 - 0.014ms returns 0x00
T5138 000:612.993 JLINK_WriteReg(R7, 0x00000000)
T5138 000:613.002 - 0.013ms returns 0x00
T5138 000:613.012 JLINK_WriteReg(R8, 0x00000000)
T5138 000:613.022 - 0.015ms returns 0x00
T5138 000:613.033 JLINK_WriteReg(R9, 0x20000160)
T5138 000:613.043 - 0.014ms returns 0x00
T5138 000:613.054 JLINK_WriteReg(R10, 0x00000000)
T5138 000:613.064 - 0.015ms returns 0x00
T5138 000:613.074 JLINK_WriteReg(R11, 0x00000000)
T5138 000:613.084 - 0.014ms returns 0x00
T5138 000:613.095 JLINK_WriteReg(R12, 0x00000000)
T5138 000:613.112 - 0.022ms returns 0x00
T5138 000:613.123 JLINK_WriteReg(R13 (SP), 0x20001000)
T5138 000:613.133 - 0.015ms returns 0x00
T5138 000:613.144 JLINK_WriteReg(R14, 0x20000001)
T5138 000:613.155 - 0.015ms returns 0x00
T5138 000:613.166 JLINK_WriteReg(R15 (PC), 0x200000F4)
T5138 000:613.177 - 0.014ms returns 0x00
T5138 000:613.187 JLINK_WriteReg(XPSR, 0x01000000)
T5138 000:613.197 - 0.015ms returns 0x00
T5138 000:613.208 JLINK_WriteReg(MSP, 0x20001000)
T5138 000:613.218 - 0.015ms returns 0x00
T5138 000:613.228 JLINK_WriteReg(PSP, 0x20001000)
T5138 000:613.239 - 0.015ms returns 0x00
T5138 000:613.249 JLINK_WriteReg(CFBP, 0x00000000)
T5138 000:613.260 - 0.015ms returns 0x00
T5138 000:613.271   JLINK_SetBPEx(Addr = 0x20000000, Type = 0xFFFFFFF2)
T5138 000:613.287 - 0.021ms returns 0x0000000C
T5138 000:613.298 JLINK_Go()
T5138 000:613.315   CPU_ReadMem(4 bytes @ 0xE0001000)
T5138 000:616.626 - 3.348ms
T5138 000:616.658 JLINK_IsHalted()
T5138 000:617.032 - 0.382ms returns FALSE
T5138 000:622.315 JLINK_IsHalted()
T5138 000:622.778 - 0.478ms returns FALSE
T5138 000:624.277 JLINK_IsHalted()
T5138 000:624.863 - 0.605ms returns FALSE
T5138 000:629.309 JLINK_IsHalted()
T5138 000:629.838 - 0.543ms returns FALSE
T5138 000:631.306 JLINK_IsHalted()
T5138 000:631.748 - 0.448ms returns FALSE
T5138 000:633.537 JLINK_IsHalted()
T5138 000:633.969 - 0.448ms returns FALSE
T5138 000:635.556 JLINK_IsHalted()
T5138 000:636.057 - 0.531ms returns FALSE
T5138 000:637.687 JLINK_IsHalted()
T5138 000:638.137 - 0.455ms returns FALSE
T5138 000:639.644 JLINK_IsHalted()
T5138 000:640.116 - 0.480ms returns FALSE
T5138 000:643.703 JLINK_IsHalted()
T5138 000:644.254 - 0.565ms returns FALSE
T5138 000:645.850 JLINK_IsHalted()
T5138 000:646.290 - 0.447ms returns FALSE
T5138 000:648.384 JLINK_IsHalted()
T5138 000:651.267   CPU_ReadMem(2 bytes @ 0x20000000)
T5138 000:651.670 - 3.297ms returns TRUE
T5138 000:651.692 JLINK_ReadReg(R15 (PC))
T5138 000:651.710 - 0.025ms returns 0x20000000
T5138 000:651.726 JLINK_ClrBPEx(BPHandle = 0x0000000C)
T5138 000:651.740 - 0.021ms returns 0x00
T5138 000:651.756 JLINK_ReadReg(R0)
T5138 000:651.769 - 0.025ms returns 0x00000000
T5138 000:652.400 JLINK_WriteMem(0x20000164, 0x029C Bytes, ...)
T5138 000:652.429   Data:  FF F7 26 FD 00 1B 02 28 09 D8 28 68 80 01 F7 D5 ...
T5138 000:652.462   CPU_WriteMem(668 bytes @ 0x20000164)
T5138 000:656.324 - 3.951ms returns 0x29C
T5138 000:656.422 JLINK_WriteMem(0x20000400, 0x0164 Bytes, ...)
T5138 000:656.453   Data:  20 6A 41 1C 21 62 21 68 00 78 48 60 E0 8C 40 1E ...
T5138 000:656.486   CPU_WriteMem(356 bytes @ 0x20000400)
T5138 000:658.887 - 2.501ms returns 0x164
T5138 000:658.954 JLINK_WriteReg(R0, 0x08000C00)
T5138 000:658.995 - 0.058ms returns 0x00
T5138 000:659.028 JLINK_WriteReg(R1, 0x00000400)
T5138 000:659.059 - 0.043ms returns 0x00
T5138 000:659.088 JLINK_WriteReg(R2, 0x20000164)
T5138 000:659.116 - 0.042ms returns 0x00
T5138 000:659.145 JLINK_WriteReg(R3, 0x00000000)
T5138 000:659.171 - 0.039ms returns 0x00
T5138 000:659.199 JLINK_WriteReg(R4, 0x00000000)
T5138 000:659.226 - 0.040ms returns 0x00
T5138 000:659.256 JLINK_WriteReg(R5, 0x00000000)
T5138 000:659.284 - 0.041ms returns 0x00
T5138 000:659.314 JLINK_WriteReg(R6, 0x00000000)
T5138 000:659.350 - 0.045ms returns 0x00
T5138 000:659.368 JLINK_WriteReg(R7, 0x00000000)
T5138 000:659.384 - 0.023ms returns 0x00
T5138 000:659.402 JLINK_WriteReg(R8, 0x00000000)
T5138 000:659.418 - 0.023ms returns 0x00
T5138 000:659.435 JLINK_WriteReg(R9, 0x20000160)
T5138 000:659.452 - 0.025ms returns 0x00
T5138 000:659.470 JLINK_WriteReg(R10, 0x00000000)
T5138 000:659.488 - 0.026ms returns 0x00
T5138 000:659.506 JLINK_WriteReg(R11, 0x00000000)
T5138 000:659.523 - 0.024ms returns 0x00
T5138 000:659.540 JLINK_WriteReg(R12, 0x00000000)
T5138 000:659.557 - 0.025ms returns 0x00
T5138 000:659.575 JLINK_WriteReg(R13 (SP), 0x20001000)
T5138 000:659.594 - 0.026ms returns 0x00
T5138 000:659.612 JLINK_WriteReg(R14, 0x20000001)
T5138 000:659.636 - 0.036ms returns 0x00
T5138 000:659.658 JLINK_WriteReg(R15 (PC), 0x200000F4)
T5138 000:659.675 - 0.025ms returns 0x00
T5138 000:659.692 JLINK_WriteReg(XPSR, 0x01000000)
T5138 000:659.709 - 0.025ms returns 0x00
T5138 000:659.727 JLINK_WriteReg(MSP, 0x20001000)
T5138 000:659.745 - 0.025ms returns 0x00
T5138 000:659.763 JLINK_WriteReg(PSP, 0x20001000)
T5138 000:659.780 - 0.025ms returns 0x00
T5138 000:659.798 JLINK_WriteReg(CFBP, 0x00000000)
T5138 000:659.814 - 0.024ms returns 0x00
T5138 000:659.834   JLINK_SetBPEx(Addr = 0x20000000, Type = 0xFFFFFFF2)
T5138 000:659.861 - 0.036ms returns 0x0000000D
T5138 000:659.879 JLINK_Go()
T5138 000:659.908   CPU_ReadMem(4 bytes @ 0xE0001000)
T5138 000:663.335 - 3.505ms
T5138 000:663.398 JLINK_IsHalted()
T5138 000:663.875 - 0.487ms returns FALSE
T5138 000:668.368 JLINK_IsHalted()
T5138 000:668.803 - 0.450ms returns FALSE
T5138 000:670.338 JLINK_IsHalted()
T5138 000:670.825 - 0.501ms returns FALSE
T5138 000:675.414 JLINK_IsHalted()
T5138 000:675.822 - 0.424ms returns FALSE
T5138 000:677.313 JLINK_IsHalted()
T5138 000:677.750 - 0.447ms returns FALSE
T5138 000:679.421 JLINK_IsHalted()
T5138 000:679.856 - 0.441ms returns FALSE
T5138 000:681.917 JLINK_IsHalted()
T5138 000:682.307 - 0.410ms returns FALSE
T5138 000:683.896 JLINK_IsHalted()
T5138 000:684.261 - 0.372ms returns FALSE
T5138 000:685.930 JLINK_IsHalted()
T5138 000:686.524 - 0.616ms returns FALSE
T5138 000:691.172 JLINK_IsHalted()
T5138 000:691.602 - 0.437ms returns FALSE
T5138 000:693.160 JLINK_IsHalted()
T5138 000:693.561 - 0.425ms returns FALSE
T5138 000:695.176 JLINK_IsHalted()
T5138 000:698.016   CPU_ReadMem(2 bytes @ 0x20000000)
T5138 000:698.375 - 3.214ms returns TRUE
T5138 000:698.399 JLINK_ReadReg(R15 (PC))
T5138 000:698.414 - 0.020ms returns 0x20000000
T5138 000:698.426 JLINK_ClrBPEx(BPHandle = 0x0000000D)
